T2970 1152:355 SEGGER J-Link V6.40 Log File (0000ms, 4054ms total)
T2970 1152:355 DLL Compiled: Oct 26 2018 15:06:02 (0000ms, 4054ms total)
T2970 1152:355 Logging started @ 2021-08-30 10:16 (0000ms, 4054ms total)
T2970 1152:355 JLINK_SetWarnOutHandler(...) (0000ms, 4054ms total)
T2970 1152:355 JLINK_OpenEx(...)
Firmware: J-Link V9 compiled May  7 2021 16:26:12
Hardware: V9.60
S/N: 69665874
Feature(s): RDI, GDB, FlashDL, FlashBP, JFlash
TELNET listener socket opened on port 19021Device "NRF52832_XXAA" selected.WEBSRV 
Starting webserver (0024ms, 4078ms total)
T2970 1152:355 WEBSRV Webserver running on local port 19081 (0024ms, 4078ms total)
T2970 1152:355   returns O.K. (0024ms, 4078ms total)
T2970 1152:379 JLINK_GetEmuCaps()  returns 0xB9FF7BBF (0000ms, 4078ms total)
T2970 1152:380 JLINK_TIF_GetAvailable(...) (0000ms, 4078ms total)
T2970 1152:380 JLINK_SetErrorOutHandler(...) (0000ms, 4078ms total)
T2970 1152:380 JLINK_ExecCommand("ProjectFile = "C:\Users\larry\Desktop\827jpr_ble\JPR\examples\ble_peripheral\ble_app_template\pca10040e\s112\arm5_no_packs\JLinkSettings.ini"", ...). Device "NRF52832_XXAA" selected.  returns 0x00 (0007ms, 4085ms total)
T2970 1152:391 JLINK_ExecCommand("Device = nRF52810_xxAA", ...). Device "NRF52832_XXAA" selected.  returns 0x00 (0006ms, 4091ms total)
T2970 1152:397 JLINK_ExecCommand("DisableConnectionTimeout", ...).   returns 0x01 (0000ms, 4091ms total)
T2970 1152:397 JLINK_GetHardwareVersion()  returns 0x17700 (0000ms, 4091ms total)
T2970 1152:397 JLINK_GetDLLVersion()  returns 64000 (0000ms, 4091ms total)
T2970 1152:397 JLINK_GetFirmwareString(...) (0000ms, 4091ms total)
T2970 1152:406 JLINK_GetDLLVersion()  returns 64000 (0000ms, 4091ms total)
T2970 1152:406 JLINK_GetCompileDateTime() (0000ms, 4091ms total)
T2970 1152:409 JLINK_GetFirmwareString(...) (0000ms, 4091ms total)
T2970 1152:413 JLINK_GetHardwareVersion()  returns 0x17700 (0000ms, 4091ms total)
T2970 1152:422 JLINK_TIF_Select(JLINKARM_TIF_SWD)  returns 0x00 (0002ms, 4093ms total)
T2970 1152:424 JLINK_SetSpeed(5000) (0000ms, 4093ms total)
T2970 1152:424 JLINK_GetId() >0x10B TIF> >0x10F TIF> >0x10B TIF> >0x10F TIF> >0x10B TIF>Found SW-DP with ID 0x2BA01477 >0x0D TIF> >0x28 TIF> >0x0D TIF> >0x28 TIF>SWD speed too high. Reduced from 4000 kHz to 2700 kHz for stability >0x10B TIF>Found SW-DP with ID 0x2BA01477 >0x0D TIF> >0x28 TIF> >0x0D TIF> >0x28 TIF> >0x0D TIF> >0x28 TIF> >0x0D TIF> >0x28 TIF> >0x35 TIF> >0x0D TIF> >0x28 TIF>Scanning AP map to find all available APs >0x0D TIF> >0x28 TIF> >0x35 TIF> >0x35 TIF> >0x0D TIF> >0x28 TIF>
 >0x35 TIF> >0x35 TIF> >0x0D TIF> >0x28 TIF> >0x35 TIF> >0x35 TIF>AP[2]: Stopped AP scan as end of AP map has been reachedAP[0]: AHB-AP (IDR: 0x24770011)AP[1]: JTAG-AP (IDR: 0x02880000)Iterating through AP map to find AHB-AP to use >0x42 TIF> >0x28 TIF> >0x0D TIF> >0x28 TIF> >0x35 TIF> >0x35 TIF> >0x42 TIF> >0x28 TIF> >0x0D TIF> >0x28 TIF> >0x0D TIF> >0x28 TIF> >0x35 TIF> >0x35 TIF>AP[0]: Core foundAP[0]: AHB-AP ROM base: 0xE00FF000 >0x0D TIF> >0x28 TIF> >0x0D TIF> >0x28 TIF> >0x0D TIF> >0x28 TIF>
 >0x35 TIF> >0x35 TIF>CPUID register: 0x410FC241. Implementer code: 0x41 (ARM)Found Cortex-M4 r0p1, Little endian. -- Max. mem block: 0x000105C8 -- CPU_ReadMem(4 bytes @ 0xE000EDF0) -- CPU_ReadMem(4 bytes @ 0xE0002000)FPUnit: 6 code (BP) slots and 2 literal slots -- CPU_ReadMem(4 bytes @ 0xE000EDFC) -- CPU_ReadMem(4 bytes @ 0xE0001000) -- CPU_WriteMem(4 bytes @ 0xE0001000) -- CPU_ReadMem(4 bytes @ 0xE000ED88) -- CPU_WriteMem(4 bytes @ 0xE000ED88) -- CPU_ReadMem(4 bytes @ 0xE000ED88)
 -- CPU_WriteMem(4 bytes @ 0xE000ED88)CoreSight components:ROMTbl[0] @ E00FF000 -- CPU_ReadMem(16 bytes @ 0xE00FF000) -- CPU_ReadMem(16 bytes @ 0xE000EFF0) -- CPU_ReadMem(16 bytes @ 0xE000EFE0)ROMTbl[0][0]: E000E000, CID: B105E00D, PID: 000BB000 SCS -- CPU_ReadMem(16 bytes @ 0xE0001FF0) -- CPU_ReadMem(16 bytes @ 0xE0001FE0)ROMTbl[0][1]: E0001000, CID: B105E00D, PID: 003BB002 DWT -- CPU_ReadMem(16 bytes @ 0xE0002FF0) -- CPU_ReadMem(16 bytes @ 0xE0002FE0)
ROMTbl[0][2]: E0002000, CID: B105E00D, PID: 002BB003 FPB -- CPU_ReadMem(16 bytes @ 0xE00FF010) >0x35 TIF>  returns 0x2BA01477 (0285ms, 4378ms total)
T2970 1152:709 JLINK_GetDLLVersion()  returns 64000 (0000ms, 4378ms total)
T2970 1152:709 JLINK_CORE_GetFound()  returns 0xE0000FF (0000ms, 4378ms total)
T2970 1152:709 JLINK_GetDebugInfo(0x100 = JLINKARM_ROM_TABLE_ADDR_INDEX) -- Value=0xE00FF000  returns 0x00 (0000ms, 4378ms total)
T2970 1152:712 JLINK_GetDebugInfo(0x100 = JLINKARM_ROM_TABLE_ADDR_INDEX) -- Value=0xE00FF000  returns 0x00 (0000ms, 4378ms total)
T2970 1152:712 JLINK_GetDebugInfo(0x101 = JLINKARM_DEBUG_INFO_ETM_ADDR_INDEX) -- Value=0x00000000  returns 0x00 (0000ms, 4378ms total)
T2970 1152:712 JLINK_ReadMemEx(0xE0041FF0, 0x0010 Bytes, ..., Flags = 0x02000004) -- CPU_ReadMem(16 bytes @ 0xE0041FF0) - Data: 00 00 00 00 00 00 00 00 00 00 00 00 00 00 00 00  returns 0x10 (0025ms, 4403ms total)
T2970 1152:737 JLINK_GetDebugInfo(0x102 = JLINKARM_DEBUG_INFO_MTB_ADDR_INDEX) -- Value=0x00000000  returns 0x00 (0000ms, 4403ms total)
T2970 1152:737 JLINK_GetDebugInfo(0x103 = JLINKARM_DEBUG_INFO_TPIU_ADDR_INDEX) -- Value=0x00000000  returns 0x00 (0000ms, 4403ms total)
T2970 1152:737 JLINK_ReadMemEx(0xE0040FF0, 0x0010 Bytes, ..., Flags = 0x02000004) -- CPU_ReadMem(16 bytes @ 0xE0040FF0) - Data: 00 00 00 00 00 00 00 00 00 00 00 00 00 00 00 00  returns 0x10 (0001ms, 4404ms total)
T2970 1152:738 JLINK_GetDebugInfo(0x104 = JLINKARM_DEBUG_INFO_ITM_ADDR_INDEX) -- Value=0xE0000000  returns 0x00 (0000ms, 4404ms total)
T2970 1152:738 JLINK_GetDebugInfo(0x105 = JLINKARM_DEBUG_INFO_DWT_ADDR_INDEX) -- Value=0xE0001000  returns 0x00 (0000ms, 4404ms total)
T2970 1152:738 JLINK_GetDebugInfo(0x106 = JLINKARM_DEBUG_INFO_FPB_ADDR_INDEX) -- Value=0xE0002000  returns 0x00 (0000ms, 4404ms total)
T2970 1152:738 JLINK_GetDebugInfo(0x107 = JLINKARM_DEBUG_INFO_NVIC_ADDR_INDEX) -- Value=0xE000E000  returns 0x00 (0000ms, 4404ms total)
T2970 1152:738 JLINK_GetDebugInfo(0x10C = JLINKARM_DEBUG_INFO_DBG_ADDR_INDEX) -- Value=0xE000EDF0  returns 0x00 (0000ms, 4404ms total)
T2970 1152:738 JLINK_GetDebugInfo(0x01 = Unknown) -- Value=0x00000001  returns 0x00 (0000ms, 4404ms total)
T2970 1152:738 JLINK_ReadMemU32(0xE000ED00, 0x0001 Items, ...) -- CPU_ReadMem(4 bytes @ 0xE000ED00) - Data: 41 C2 0F 41  returns 1 (0001ms, 4405ms total)
T2970 1152:739 JLINK_GetDebugInfo(0x10F = JLINKARM_DEBUG_INFO_HAS_CORTEX_M_SECURITY_EXT_INDEX) -- Value=0x00000000  returns 0x00 (0000ms, 4405ms total)
T2970 1152:739 JLINK_SetResetType(JLINKARM_CM3_RESET_TYPE_NORMAL)  returns JLINKARM_CM3_RESET_TYPE_NORMAL (0000ms, 4405ms total)
T2970 1152:739 JLINK_Reset() -- CPU is running -- CPU_WriteMem(4 bytes @ 0xE000EDF0) -- CPU is running -- CPU_WriteMem(4 bytes @ 0xE000EDFC)Reset: Halt core after reset via DEMCR.VC_CORERESET. >0x35 TIF>Reset: Reset device via AIRCR.SYSRESETREQ. -- CPU is running -- CPU_WriteMem(4 bytes @ 0xE000ED0C) >0x0D TIF> >0x28 TIF> -- CPU_ReadMem(4 bytes @ 0xE000EDF0) -- CPU_ReadMem(4 bytes @ 0xE000EDF0) -- CPU is running -- CPU_WriteMem(4 bytes @ 0xE000EDF0) -- CPU is running -- CPU_WriteMem(4 bytes @ 0xE000EDFC)
 -- CPU_ReadMem(4 bytes @ 0xE000EDF0) -- CPU_WriteMem(4 bytes @ 0xE0002000) -- CPU_ReadMem(4 bytes @ 0xE000EDFC) -- CPU_ReadMem(4 bytes @ 0xE0001000) (0074ms, 4479ms total)
T2970 1152:813 JLINK_Halt()  returns 0x00 (0000ms, 4479ms total)
T2970 1152:813 JLINK_ReadMemU32(0xE000EDF0, 0x0001 Items, ...) -- CPU_ReadMem(4 bytes @ 0xE000EDF0) - Data: 03 00 03 00  returns 1 (0028ms, 4507ms total)
T2970 1152:841 JLINK_WriteU32(0xE000EDF0, 0xA05F0003) -- CPU_WriteMem(4 bytes @ 0xE000EDF0)  returns 0 (0001ms, 4508ms total)
T2970 1152:842 JLINK_WriteU32(0xE000EDFC, 0x01000000) -- CPU_WriteMem(4 bytes @ 0xE000EDFC)  returns 0 (0001ms, 4509ms total)
T2970 1152:853 JLINK_GetHWStatus(...)  returns 0x00 (0000ms, 4509ms total)
T2970 1152:860 JLINK_GetNumBPUnits(Type = 0xFFFFFF00)  returns 0x06 (0000ms, 4509ms total)
T2970 1152:860 JLINK_GetNumBPUnits(Type = 0xF0)  returns 0x2000 (0000ms, 4509ms total)
T2970 1152:860 JLINK_GetNumWPUnits()  returns 0x04 (0000ms, 4509ms total)
T2970 1152:868 JLINK_GetSpeed()  returns 0x960 (0000ms, 4509ms total)
T2970 1152:872 JLINK_ReadMemU32(0xE000E004, 0x0001 Items, ...) -- CPU_ReadMem(4 bytes @ 0xE000E004) - Data: 00 00 00 00  returns 1 (0001ms, 4510ms total)
T2970 1152:873 JLINK_ReadMemU32(0xE000E004, 0x0001 Items, ...) -- CPU_ReadMem(4 bytes @ 0xE000E004) - Data: 00 00 00 00  returns 1 (0001ms, 4511ms total)
T2970 1152:874 JLINK_WriteMemEx(0xE0001000, 0x001C Bytes, ..., Flags = 0x02000004) - Data: 01 00 00 00 00 00 00 00 00 00 00 00 00 00 00 00 ... -- CPU_WriteMem(28 bytes @ 0xE0001000)  returns 0x1C (0000ms, 4511ms total)
T2970 1152:874 JLINK_Halt()  returns 0x00 (0000ms, 4511ms total)
T2970 1152:874 JLINK_IsHalted()  returns TRUE (0000ms, 4511ms total)
T2970 1152:876 JLINK_WriteMem(0x20000000, 0x06F4 Bytes, ...) - Data: 00 BE 0A E0 0D 78 2D 06 68 40 08 24 40 00 00 D3 ... -- CPU_WriteMem(1780 bytes @ 0x20000000)  returns 0x6F4 (0011ms, 4522ms total)
T2970 1152:887 JLINK_WriteReg(R0, 0x00000000)  returns 0x00 (0000ms, 4522ms total)
T2970 1152:887 JLINK_WriteReg(R1, 0x03D09000)  returns 0x00 (0000ms, 4522ms total)
T2970 1152:887 JLINK_WriteReg(R2, 0x00000001)  returns 0x00 (0000ms, 4522ms total)
T2970 1152:887 JLINK_WriteReg(R3, 0x00000000)  returns 0x00 (0000ms, 4522ms total)
T2970 1152:887 JLINK_WriteReg(R4, 0x00000000)  returns 0x00 (0000ms, 4522ms total)
T2970 1152:887 JLINK_WriteReg(R5, 0x00000000)  returns 0x00 (0000ms, 4522ms total)
T2970 1152:888 JLINK_WriteReg(R6, 0x00000000)  returns 0x00 (0000ms, 4523ms total)
T2970 1152:888 JLINK_WriteReg(R7, 0x00000000)  returns 0x00 (0000ms, 4523ms total)
T2970 1152:888 JLINK_WriteReg(R8, 0x00000000)  returns 0x00 (0000ms, 4523ms total)
T2970 1152:888 JLINK_WriteReg(R9, 0x200006F0)  returns 0x00 (0000ms, 4523ms total)
T2970 1152:888 JLINK_WriteReg(R10, 0x00000000)  returns 0x00 (0000ms, 4523ms total)
T2970 1152:888 JLINK_WriteReg(R11, 0x00000000)  returns 0x00 (0000ms, 4523ms total)
T2970 1152:888 JLINK_WriteReg(R12, 0x00000000)  returns 0x00 (0000ms, 4523ms total)
T2970 1152:888 JLINK_WriteReg(R13 (SP), 0x20002000)  returns 0x00 (0000ms, 4523ms total)
T2970 1152:888 JLINK_WriteReg(R14, 0x20000001)  returns 0x00 (0000ms, 4523ms total)
T2970 1152:888 JLINK_WriteReg(R15 (PC), 0x20000020)  returns 0x00 (0000ms, 4523ms total)
T2970 1152:888 JLINK_WriteReg(XPSR, 0x01000000)  returns 0x00 (0000ms, 4523ms total)
T2970 1152:888 JLINK_WriteReg(MSP, 0x20002000)  returns 0x00 (0000ms, 4523ms total)
T2970 1152:888 JLINK_WriteReg(PSP, 0x20002000)  returns 0x00 (0000ms, 4523ms total)
T2970 1152:888 JLINK_WriteReg(CFBP, 0x00000000)  returns 0x00 (0000ms, 4523ms total)
T2970 1152:888 JLINK_SetBPEx(Addr = 0x20000000, Type = 0xFFFFFFF2) -- CPU_ReadMem(2 bytes @ 0x20000000)  returns 0x00000001 (0027ms, 4550ms total)
T2970 1152:915 JLINK_Go() -- CPU_WriteMem(2 bytes @ 0x20000000) -- CPU_ReadMem(4 bytes @ 0xE0001000) -- CPU_WriteMem(4 bytes @ 0xE0002008) -- CPU_WriteMem(4 bytes @ 0xE000200C) -- CPU_WriteMem(4 bytes @ 0xE0002010) -- CPU_WriteMem(4 bytes @ 0xE0002014) -- CPU_WriteMem(4 bytes @ 0xE0002018) -- CPU_WriteMem(4 bytes @ 0xE000201C) -- CPU_WriteMem(4 bytes @ 0xE0001004) (0005ms, 4555ms total)
T2970 1152:920 JLINK_IsHalted() -- CPU_ReadMem(2 bytes @ 0x20000000)  returns TRUE (0004ms, 4559ms total)
T2970 1152:924 JLINK_ReadReg(R15 (PC))  returns 0x20000000 (0000ms, 4555ms total)
T2970 1152:924 JLINK_ClrBPEx(BPHandle = 0x00000001)  returns 0x00 (0000ms, 4555ms total)
T2970 1152:924 JLINK_ReadReg(R0)  returns 0x00000000 (0000ms, 4555ms total)
T2970 1152:925 JLINK_WriteReg(R0, 0x00019000)  returns 0x00 (0000ms, 4555ms total)
T2970 1152:925 JLINK_WriteReg(R1, 0x00001000)  returns 0x00 (0000ms, 4555ms total)
T2970 1152:925 JLINK_WriteReg(R2, 0x000000FF)  returns 0x00 (0000ms, 4555ms total)
T2970 1152:925 JLINK_WriteReg(R3, 0x00000000)  returns 0x00 (0000ms, 4555ms total)
T2970 1152:925 JLINK_WriteReg(R4, 0x00000000)  returns 0x00 (0000ms, 4555ms total)
T2970 1152:925 JLINK_WriteReg(R5, 0x00000000)  returns 0x00 (0000ms, 4555ms total)
T2970 1152:925 JLINK_WriteReg(R6, 0x00000000)  returns 0x00 (0000ms, 4555ms total)
T2970 1152:925 JLINK_WriteReg(R7, 0x00000000)  returns 0x00 (0000ms, 4555ms total)
T2970 1152:925 JLINK_WriteReg(R8, 0x00000000)  returns 0x00 (0000ms, 4555ms total)
T2970 1152:925 JLINK_WriteReg(R9, 0x200006F0)  returns 0x00 (0000ms, 4555ms total)
T2970 1152:925 JLINK_WriteReg(R10, 0x00000000)  returns 0x00 (0000ms, 4555ms total)
T2970 1152:925 JLINK_WriteReg(R11, 0x00000000)  returns 0x00 (0000ms, 4555ms total)
T2970 1152:925 JLINK_WriteReg(R12, 0x00000000)  returns 0x00 (0000ms, 4555ms total)
T2970 1152:925 JLINK_WriteReg(R13 (SP), 0x20002000)  returns 0x00 (0000ms, 4555ms total)
T2970 1152:925 JLINK_WriteReg(R14, 0x20000001)  returns 0x00 (0000ms, 4555ms total)
T2970 1152:925 JLINK_WriteReg(R15 (PC), 0x20000344)  returns 0x00 (0000ms, 4555ms total)
T2970 1152:925 JLINK_WriteReg(XPSR, 0x01000000)  returns 0x00 (0000ms, 4555ms total)
T2970 1152:925 JLINK_WriteReg(MSP, 0x20002000)  returns 0x00 (0000ms, 4555ms total)
T2970 1152:925 JLINK_WriteReg(PSP, 0x20002000)  returns 0x00 (0000ms, 4555ms total)
T2970 1152:925 JLINK_WriteReg(CFBP, 0x00000000)  returns 0x00 (0000ms, 4555ms total)
T2970 1152:925 JLINK_SetBPEx(Addr = 0x20000000, Type = 0xFFFFFFF2)  returns 0x00000002 (0000ms, 4555ms total)
T2970 1152:925 JLINK_Go() -- CPU_ReadMem(4 bytes @ 0xE0001000) (0003ms, 4558ms total)
T2970 1152:928 JLINK_IsHalted()  returns FALSE (0000ms, 4558ms total)
T2970 1152:960 JLINK_IsHalted() -- CPU_ReadMem(2 bytes @ 0x20000000)  returns TRUE (0027ms, 4585ms total)
T2970 1152:987 JLINK_ReadReg(R15 (PC))  returns 0x20000000 (0000ms, 4558ms total)
T2970 1152:987 JLINK_ClrBPEx(BPHandle = 0x00000002)  returns 0x00 (0000ms, 4558ms total)
T2970 1152:987 JLINK_ReadReg(R0)  returns 0x00000000 (0000ms, 4558ms total)
T2970 1152:987 JLINK_WriteReg(R0, 0x0001A000)  returns 0x00 (0000ms, 4558ms total)
T2970 1152:987 JLINK_WriteReg(R1, 0x00001000)  returns 0x00 (0000ms, 4558ms total)
T2970 1152:987 JLINK_WriteReg(R2, 0x000000FF)  returns 0x00 (0000ms, 4558ms total)
T2970 1152:987 JLINK_WriteReg(R3, 0x00000000)  returns 0x00 (0000ms, 4558ms total)
T2970 1152:987 JLINK_WriteReg(R4, 0x00000000)  returns 0x00 (0000ms, 4558ms total)
T2970 1152:987 JLINK_WriteReg(R5, 0x00000000)  returns 0x00 (0000ms, 4558ms total)
T2970 1152:987 JLINK_WriteReg(R6, 0x00000000)  returns 0x00 (0000ms, 4558ms total)
T2970 1152:987 JLINK_WriteReg(R7, 0x00000000)  returns 0x00 (0000ms, 4558ms total)
T2970 1152:987 JLINK_WriteReg(R8, 0x00000000)  returns 0x00 (0000ms, 4558ms total)
T2970 1152:987 JLINK_WriteReg(R9, 0x200006F0)  returns 0x00 (0000ms, 4558ms total)
T2970 1152:987 JLINK_WriteReg(R10, 0x00000000)  returns 0x00 (0000ms, 4558ms total)
T2970 1152:987 JLINK_WriteReg(R11, 0x00000000)  returns 0x00 (0000ms, 4558ms total)
T2970 1152:987 JLINK_WriteReg(R12, 0x00000000)  returns 0x00 (0000ms, 4558ms total)
T2970 1152:987 JLINK_WriteReg(R13 (SP), 0x20002000)  returns 0x00 (0000ms, 4558ms total)
T2970 1152:987 JLINK_WriteReg(R14, 0x20000001)  returns 0x00 (0000ms, 4558ms total)
T2970 1152:987 JLINK_WriteReg(R15 (PC), 0x20000344)  returns 0x00 (0000ms, 4558ms total)
T2970 1152:987 JLINK_WriteReg(XPSR, 0x01000000)  returns 0x00 (0000ms, 4558ms total)
T2970 1152:987 JLINK_WriteReg(MSP, 0x20002000)  returns 0x00 (0000ms, 4558ms total)
T2970 1152:987 JLINK_WriteReg(PSP, 0x20002000)  returns 0x00 (0000ms, 4558ms total)
T2970 1152:987 JLINK_WriteReg(CFBP, 0x00000000)  returns 0x00 (0000ms, 4558ms total)
T2970 1152:987 JLINK_SetBPEx(Addr = 0x20000000, Type = 0xFFFFFFF2)  returns 0x00000003 (0000ms, 4558ms total)
T2970 1152:987 JLINK_Go() -- CPU_ReadMem(4 bytes @ 0xE0001000) (0003ms, 4561ms total)
T2970 1152:990 JLINK_IsHalted()  returns FALSE (0000ms, 4561ms total)
T2970 1152:993 JLINK_IsHalted() -- CPU_ReadMem(2 bytes @ 0x20000000)  returns TRUE (0004ms, 4565ms total)
T2970 1152:997 JLINK_ReadReg(R15 (PC))  returns 0x20000000 (0000ms, 4561ms total)
T2970 1152:997 JLINK_ClrBPEx(BPHandle = 0x00000003)  returns 0x00 (0000ms, 4561ms total)
T2970 1152:997 JLINK_ReadReg(R0)  returns 0x00000000 (0000ms, 4561ms total)
T2970 1152:997 JLINK_WriteReg(R0, 0x0001B000)  returns 0x00 (0000ms, 4561ms total)
T2970 1152:997 JLINK_WriteReg(R1, 0x00001000)  returns 0x00 (0000ms, 4561ms total)
T2970 1152:997 JLINK_WriteReg(R2, 0x000000FF)  returns 0x00 (0000ms, 4561ms total)
T2970 1152:997 JLINK_WriteReg(R3, 0x00000000)  returns 0x00 (0000ms, 4561ms total)
T2970 1152:997 JLINK_WriteReg(R4, 0x00000000)  returns 0x00 (0000ms, 4561ms total)
T2970 1152:997 JLINK_WriteReg(R5, 0x00000000)  returns 0x00 (0000ms, 4561ms total)
T2970 1152:997 JLINK_WriteReg(R6, 0x00000000)  returns 0x00 (0000ms, 4561ms total)
T2970 1152:997 JLINK_WriteReg(R7, 0x00000000)  returns 0x00 (0000ms, 4561ms total)
T2970 1152:997 JLINK_WriteReg(R8, 0x00000000)  returns 0x00 (0000ms, 4561ms total)
T2970 1152:997 JLINK_WriteReg(R9, 0x200006F0)  returns 0x00 (0000ms, 4561ms total)
T2970 1152:997 JLINK_WriteReg(R10, 0x00000000)  returns 0x00 (0000ms, 4561ms total)
T2970 1152:997 JLINK_WriteReg(R11, 0x00000000)  returns 0x00 (0000ms, 4561ms total)
T2970 1152:997 JLINK_WriteReg(R12, 0x00000000)  returns 0x00 (0000ms, 4561ms total)
T2970 1152:997 JLINK_WriteReg(R13 (SP), 0x20002000)  returns 0x00 (0000ms, 4561ms total)
T2970 1152:997 JLINK_WriteReg(R14, 0x20000001)  returns 0x00 (0000ms, 4561ms total)
T2970 1152:997 JLINK_WriteReg(R15 (PC), 0x20000344)  returns 0x00 (0000ms, 4561ms total)
T2970 1152:997 JLINK_WriteReg(XPSR, 0x01000000)  returns 0x00 (0000ms, 4561ms total)
T2970 1152:997 JLINK_WriteReg(MSP, 0x20002000)  returns 0x00 (0000ms, 4561ms total)
T2970 1152:997 JLINK_WriteReg(PSP, 0x20002000)  returns 0x00 (0000ms, 4561ms total)
T2970 1152:997 JLINK_WriteReg(CFBP, 0x00000000)  returns 0x00 (0000ms, 4561ms total)
T2970 1152:997 JLINK_SetBPEx(Addr = 0x20000000, Type = 0xFFFFFFF2)  returns 0x00000004 (0000ms, 4561ms total)
T2970 1152:997 JLINK_Go() -- CPU_ReadMem(4 bytes @ 0xE0001000) (0003ms, 4564ms total)
T2970 1153:000 JLINK_IsHalted()  returns FALSE (0000ms, 4564ms total)
T2970 1153:002 JLINK_IsHalted() -- CPU_ReadMem(2 bytes @ 0x20000000)  returns TRUE (0003ms, 4567ms total)
T2970 1153:005 JLINK_ReadReg(R15 (PC))  returns 0x20000000 (0000ms, 4564ms total)
T2970 1153:005 JLINK_ClrBPEx(BPHandle = 0x00000004)  returns 0x00 (0000ms, 4564ms total)
T2970 1153:005 JLINK_ReadReg(R0)  returns 0x00000000 (0000ms, 4564ms total)
T2970 1153:005 JLINK_WriteReg(R0, 0x0001C000)  returns 0x00 (0000ms, 4564ms total)
T2970 1153:005 JLINK_WriteReg(R1, 0x00001000)  returns 0x00 (0000ms, 4564ms total)
T2970 1153:005 JLINK_WriteReg(R2, 0x000000FF)  returns 0x00 (0000ms, 4564ms total)
T2970 1153:005 JLINK_WriteReg(R3, 0x00000000)  returns 0x00 (0000ms, 4564ms total)
T2970 1153:005 JLINK_WriteReg(R4, 0x00000000)  returns 0x00 (0000ms, 4564ms total)
T2970 1153:005 JLINK_WriteReg(R5, 0x00000000)  returns 0x00 (0000ms, 4564ms total)
T2970 1153:005 JLINK_WriteReg(R6, 0x00000000)  returns 0x00 (0000ms, 4564ms total)
T2970 1153:005 JLINK_WriteReg(R7, 0x00000000)  returns 0x00 (0000ms, 4564ms total)
T2970 1153:005 JLINK_WriteReg(R8, 0x00000000)  returns 0x00 (0000ms, 4564ms total)
T2970 1153:005 JLINK_WriteReg(R9, 0x200006F0)  returns 0x00 (0000ms, 4564ms total)
T2970 1153:005 JLINK_WriteReg(R10, 0x00000000)  returns 0x00 (0000ms, 4564ms total)
T2970 1153:005 JLINK_WriteReg(R11, 0x00000000)  returns 0x00 (0000ms, 4564ms total)
T2970 1153:005 JLINK_WriteReg(R12, 0x00000000)  returns 0x00 (0000ms, 4564ms total)
T2970 1153:005 JLINK_WriteReg(R13 (SP), 0x20002000)  returns 0x00 (0000ms, 4564ms total)
T2970 1153:005 JLINK_WriteReg(R14, 0x20000001)  returns 0x00 (0000ms, 4564ms total)
T2970 1153:005 JLINK_WriteReg(R15 (PC), 0x20000344)  returns 0x00 (0000ms, 4564ms total)
T2970 1153:005 JLINK_WriteReg(XPSR, 0x01000000)  returns 0x00 (0000ms, 4564ms total)
T2970 1153:005 JLINK_WriteReg(MSP, 0x20002000)  returns 0x00 (0000ms, 4564ms total)
T2970 1153:005 JLINK_WriteReg(PSP, 0x20002000)  returns 0x00 (0000ms, 4564ms total)
T2970 1153:005 JLINK_WriteReg(CFBP, 0x00000000)  returns 0x00 (0000ms, 4564ms total)
T2970 1153:005 JLINK_SetBPEx(Addr = 0x20000000, Type = 0xFFFFFFF2)  returns 0x00000005 (0000ms, 4564ms total)
T2970 1153:006 JLINK_Go() -- CPU_ReadMem(4 bytes @ 0xE0001000) (0002ms, 4567ms total)
T2970 1153:008 JLINK_IsHalted()  returns FALSE (0000ms, 4567ms total)
T2970 1153:010 JLINK_IsHalted() -- CPU_ReadMem(2 bytes @ 0x20000000)  returns TRUE (0003ms, 4570ms total)
T2970 1153:013 JLINK_ReadReg(R15 (PC))  returns 0x20000000 (0000ms, 4567ms total)
T2970 1153:013 JLINK_ClrBPEx(BPHandle = 0x00000005)  returns 0x00 (0000ms, 4567ms total)
T2970 1153:013 JLINK_ReadReg(R0)  returns 0x00000000 (0000ms, 4567ms total)
T2970 1153:013 JLINK_WriteReg(R0, 0x0001D000)  returns 0x00 (0000ms, 4567ms total)
T2970 1153:013 JLINK_WriteReg(R1, 0x00001000)  returns 0x00 (0000ms, 4567ms total)
T2970 1153:013 JLINK_WriteReg(R2, 0x000000FF)  returns 0x00 (0000ms, 4567ms total)
T2970 1153:013 JLINK_WriteReg(R3, 0x00000000)  returns 0x00 (0000ms, 4567ms total)
T2970 1153:013 JLINK_WriteReg(R4, 0x00000000)  returns 0x00 (0000ms, 4567ms total)
T2970 1153:013 JLINK_WriteReg(R5, 0x00000000)  returns 0x00 (0000ms, 4567ms total)
T2970 1153:013 JLINK_WriteReg(R6, 0x00000000)  returns 0x00 (0000ms, 4567ms total)
T2970 1153:013 JLINK_WriteReg(R7, 0x00000000)  returns 0x00 (0000ms, 4567ms total)
T2970 1153:013 JLINK_WriteReg(R8, 0x00000000)  returns 0x00 (0000ms, 4567ms total)
T2970 1153:013 JLINK_WriteReg(R9, 0x200006F0)  returns 0x00 (0000ms, 4567ms total)
T2970 1153:013 JLINK_WriteReg(R10, 0x00000000)  returns 0x00 (0000ms, 4567ms total)
T2970 1153:013 JLINK_WriteReg(R11, 0x00000000)  returns 0x00 (0000ms, 4567ms total)
T2970 1153:013 JLINK_WriteReg(R12, 0x00000000)  returns 0x00 (0000ms, 4567ms total)
T2970 1153:013 JLINK_WriteReg(R13 (SP), 0x20002000)  returns 0x00 (0000ms, 4567ms total)
T2970 1153:013 JLINK_WriteReg(R14, 0x20000001)  returns 0x00 (0000ms, 4567ms total)
T2970 1153:013 JLINK_WriteReg(R15 (PC), 0x20000344)  returns 0x00 (0000ms, 4567ms total)
T2970 1153:013 JLINK_WriteReg(XPSR, 0x01000000)  returns 0x00 (0000ms, 4567ms total)
T2970 1153:013 JLINK_WriteReg(MSP, 0x20002000)  returns 0x00 (0000ms, 4567ms total)
T2970 1153:013 JLINK_WriteReg(PSP, 0x20002000)  returns 0x00 (0000ms, 4567ms total)
T2970 1153:013 JLINK_WriteReg(CFBP, 0x00000000)  returns 0x00 (0000ms, 4567ms total)
T2970 1153:013 JLINK_SetBPEx(Addr = 0x20000000, Type = 0xFFFFFFF2)  returns 0x00000006 (0000ms, 4567ms total)
T2970 1153:013 JLINK_Go() -- CPU_ReadMem(4 bytes @ 0xE0001000) (0002ms, 4569ms total)
T2970 1153:015 JLINK_IsHalted()  returns FALSE (0001ms, 4570ms total)
T2970 1153:018 JLINK_IsHalted() -- CPU_ReadMem(2 bytes @ 0x20000000)  returns TRUE (0004ms, 4573ms total)
T2970 1153:022 JLINK_ReadReg(R15 (PC))  returns 0x20000000 (0000ms, 4569ms total)
T2970 1153:022 JLINK_ClrBPEx(BPHandle = 0x00000006)  returns 0x00 (0000ms, 4569ms total)
T2970 1153:022 JLINK_ReadReg(R0)  returns 0x00000000 (0000ms, 4569ms total)
T2970 1153:022 JLINK_WriteReg(R0, 0x0001E000)  returns 0x00 (0000ms, 4569ms total)
T2970 1153:022 JLINK_WriteReg(R1, 0x00001000)  returns 0x00 (0000ms, 4569ms total)
T2970 1153:022 JLINK_WriteReg(R2, 0x000000FF)  returns 0x00 (0000ms, 4569ms total)
T2970 1153:022 JLINK_WriteReg(R3, 0x00000000)  returns 0x00 (0000ms, 4569ms total)
T2970 1153:022 JLINK_WriteReg(R4, 0x00000000)  returns 0x00 (0000ms, 4569ms total)
T2970 1153:022 JLINK_WriteReg(R5, 0x00000000)  returns 0x00 (0000ms, 4569ms total)
T2970 1153:022 JLINK_WriteReg(R6, 0x00000000)  returns 0x00 (0000ms, 4569ms total)
T2970 1153:022 JLINK_WriteReg(R7, 0x00000000)  returns 0x00 (0000ms, 4569ms total)
T2970 1153:022 JLINK_WriteReg(R8, 0x00000000)  returns 0x00 (0000ms, 4569ms total)
T2970 1153:022 JLINK_WriteReg(R9, 0x200006F0)  returns 0x00 (0000ms, 4569ms total)
T2970 1153:022 JLINK_WriteReg(R10, 0x00000000)  returns 0x00 (0000ms, 4569ms total)
T2970 1153:022 JLINK_WriteReg(R11, 0x00000000)  returns 0x00 (0000ms, 4569ms total)
T2970 1153:022 JLINK_WriteReg(R12, 0x00000000)  returns 0x00 (0000ms, 4569ms total)
T2970 1153:022 JLINK_WriteReg(R13 (SP), 0x20002000)  returns 0x00 (0000ms, 4569ms total)
T2970 1153:022 JLINK_WriteReg(R14, 0x20000001)  returns 0x00 (0000ms, 4569ms total)
T2970 1153:022 JLINK_WriteReg(R15 (PC), 0x20000344)  returns 0x00 (0000ms, 4569ms total)
T2970 1153:022 JLINK_WriteReg(XPSR, 0x01000000)  returns 0x00 (0000ms, 4569ms total)
T2970 1153:022 JLINK_WriteReg(MSP, 0x20002000)  returns 0x00 (0000ms, 4569ms total)
T2970 1153:022 JLINK_WriteReg(PSP, 0x20002000)  returns 0x00 (0000ms, 4569ms total)
T2970 1153:022 JLINK_WriteReg(CFBP, 0x00000000)  returns 0x00 (0000ms, 4569ms total)
T2970 1153:022 JLINK_SetBPEx(Addr = 0x20000000, Type = 0xFFFFFFF2)  returns 0x00000007 (0000ms, 4569ms total)
T2970 1153:022 JLINK_Go() -- CPU_ReadMem(4 bytes @ 0xE0001000) (0002ms, 4571ms total)
T2970 1153:024 JLINK_IsHalted()  returns FALSE (0000ms, 4571ms total)
T2970 1153:026 JLINK_IsHalted() -- CPU_ReadMem(2 bytes @ 0x20000000)  returns TRUE (0031ms, 4602ms total)
T2970 1153:057 JLINK_ReadReg(R15 (PC))  returns 0x20000000 (0000ms, 4571ms total)
T2970 1153:057 JLINK_ClrBPEx(BPHandle = 0x00000007)  returns 0x00 (0000ms, 4571ms total)
T2970 1153:057 JLINK_ReadReg(R0)  returns 0x00000000 (0000ms, 4571ms total)
T2970 1153:057 JLINK_WriteReg(R0, 0x0001F000)  returns 0x00 (0000ms, 4571ms total)
T2970 1153:057 JLINK_WriteReg(R1, 0x00001000)  returns 0x00 (0000ms, 4571ms total)
T2970 1153:057 JLINK_WriteReg(R2, 0x000000FF)  returns 0x00 (0000ms, 4571ms total)
T2970 1153:057 JLINK_WriteReg(R3, 0x00000000)  returns 0x00 (0000ms, 4571ms total)
T2970 1153:057 JLINK_WriteReg(R4, 0x00000000)  returns 0x00 (0000ms, 4571ms total)
T2970 1153:057 JLINK_WriteReg(R5, 0x00000000)  returns 0x00 (0000ms, 4571ms total)
T2970 1153:057 JLINK_WriteReg(R6, 0x00000000)  returns 0x00 (0000ms, 4571ms total)
T2970 1153:057 JLINK_WriteReg(R7, 0x00000000)  returns 0x00 (0000ms, 4571ms total)
T2970 1153:057 JLINK_WriteReg(R8, 0x00000000)  returns 0x00 (0000ms, 4571ms total)
T2970 1153:057 JLINK_WriteReg(R9, 0x200006F0)  returns 0x00 (0000ms, 4571ms total)
T2970 1153:057 JLINK_WriteReg(R10, 0x00000000)  returns 0x00 (0000ms, 4571ms total)
T2970 1153:057 JLINK_WriteReg(R11, 0x00000000)  returns 0x00 (0000ms, 4571ms total)
T2970 1153:057 JLINK_WriteReg(R12, 0x00000000)  returns 0x00 (0000ms, 4571ms total)
T2970 1153:057 JLINK_WriteReg(R13 (SP), 0x20002000)  returns 0x00 (0001ms, 4572ms total)
T2970 1153:058 JLINK_WriteReg(R14, 0x20000001)  returns 0x00 (0000ms, 4572ms total)
T2970 1153:058 JLINK_WriteReg(R15 (PC), 0x20000344)  returns 0x00 (0000ms, 4572ms total)
T2970 1153:058 JLINK_WriteReg(XPSR, 0x01000000)  returns 0x00 (0000ms, 4572ms total)
T2970 1153:058 JLINK_WriteReg(MSP, 0x20002000)  returns 0x00 (0000ms, 4572ms total)
T2970 1153:058 JLINK_WriteReg(PSP, 0x20002000)  returns 0x00 (0000ms, 4572ms total)
T2970 1153:058 JLINK_WriteReg(CFBP, 0x00000000)  returns 0x00 (0000ms, 4572ms total)
T2970 1153:058 JLINK_SetBPEx(Addr = 0x20000000, Type = 0xFFFFFFF2)  returns 0x00000008 (0000ms, 4572ms total)
T2970 1153:058 JLINK_Go() -- CPU_ReadMem(4 bytes @ 0xE0001000) (0002ms, 4574ms total)
T2970 1153:060 JLINK_IsHalted()  returns FALSE (0001ms, 4575ms total)
T2970 1153:064 JLINK_IsHalted() -- CPU_ReadMem(2 bytes @ 0x20000000)  returns TRUE (0005ms, 4579ms total)
T2970 1153:069 JLINK_ReadReg(R15 (PC))  returns 0x20000000 (0000ms, 4574ms total)
T2970 1153:069 JLINK_ClrBPEx(BPHandle = 0x00000008)  returns 0x00 (0000ms, 4574ms total)
T2970 1153:069 JLINK_ReadReg(R0)  returns 0x00000000 (0000ms, 4574ms total)
T2970 1153:071 JLINK_WriteReg(R0, 0x00020000)  returns 0x00 (0000ms, 4574ms total)
T2970 1153:071 JLINK_WriteReg(R1, 0x00001000)  returns 0x00 (0000ms, 4574ms total)
T2970 1153:071 JLINK_WriteReg(R2, 0x000000FF)  returns 0x00 (0000ms, 4574ms total)
T2970 1153:071 JLINK_WriteReg(R3, 0x00000000)  returns 0x00 (0000ms, 4574ms total)
T2970 1153:071 JLINK_WriteReg(R4, 0x00000000)  returns 0x00 (0000ms, 4574ms total)
T2970 1153:071 JLINK_WriteReg(R5, 0x00000000)  returns 0x00 (0000ms, 4574ms total)
T2970 1153:071 JLINK_WriteReg(R6, 0x00000000)  returns 0x00 (0000ms, 4574ms total)
T2970 1153:071 JLINK_WriteReg(R7, 0x00000000)  returns 0x00 (0000ms, 4574ms total)
T2970 1153:071 JLINK_WriteReg(R8, 0x00000000)  returns 0x00 (0000ms, 4574ms total)
T2970 1153:071 JLINK_WriteReg(R9, 0x200006F0)  returns 0x00 (0000ms, 4574ms total)
T2970 1153:071 JLINK_WriteReg(R10, 0x00000000)  returns 0x00 (0000ms, 4574ms total)
T2970 1153:071 JLINK_WriteReg(R11, 0x00000000)  returns 0x00 (0000ms, 4574ms total)
T2970 1153:071 JLINK_WriteReg(R12, 0x00000000)  returns 0x00 (0000ms, 4574ms total)
T2970 1153:071 JLINK_WriteReg(R13 (SP), 0x20002000)  returns 0x00 (0000ms, 4574ms total)
T2970 1153:071 JLINK_WriteReg(R14, 0x20000001)  returns 0x00 (0000ms, 4574ms total)
T2970 1153:071 JLINK_WriteReg(R15 (PC), 0x20000344)  returns 0x00 (0000ms, 4574ms total)
T2970 1153:071 JLINK_WriteReg(XPSR, 0x01000000)  returns 0x00 (0000ms, 4574ms total)
T2970 1153:071 JLINK_WriteReg(MSP, 0x20002000)  returns 0x00 (0000ms, 4574ms total)
T2970 1153:071 JLINK_WriteReg(PSP, 0x20002000)  returns 0x00 (0000ms, 4574ms total)
T2970 1153:071 JLINK_WriteReg(CFBP, 0x00000000)  returns 0x00 (0000ms, 4574ms total)
T2970 1153:071 JLINK_SetBPEx(Addr = 0x20000000, Type = 0xFFFFFFF2)  returns 0x00000009 (0000ms, 4574ms total)
T2970 1153:071 JLINK_Go() -- CPU_ReadMem(4 bytes @ 0xE0001000) (0004ms, 4578ms total)
T2970 1153:075 JLINK_IsHalted()  returns FALSE (0000ms, 4578ms total)
T2970 1153:077 JLINK_IsHalted() -- CPU_ReadMem(2 bytes @ 0x20000000)  returns TRUE (0004ms, 4582ms total)
T2970 1153:081 JLINK_ReadReg(R15 (PC))  returns 0x20000000 (0000ms, 4578ms total)
T2970 1153:081 JLINK_ClrBPEx(BPHandle = 0x00000009)  returns 0x00 (0000ms, 4578ms total)
T2970 1153:081 JLINK_ReadReg(R0)  returns 0x00000000 (0000ms, 4578ms total)
T2970 1153:081 JLINK_WriteReg(R0, 0x00021000)  returns 0x00 (0000ms, 4578ms total)
T2970 1153:081 JLINK_WriteReg(R1, 0x00001000)  returns 0x00 (0000ms, 4578ms total)
T2970 1153:081 JLINK_WriteReg(R2, 0x000000FF)  returns 0x00 (0000ms, 4578ms total)
T2970 1153:081 JLINK_WriteReg(R3, 0x00000000)  returns 0x00 (0000ms, 4578ms total)
T2970 1153:081 JLINK_WriteReg(R4, 0x00000000)  returns 0x00 (0000ms, 4578ms total)
T2970 1153:081 JLINK_WriteReg(R5, 0x00000000)  returns 0x00 (0000ms, 4578ms total)
T2970 1153:081 JLINK_WriteReg(R6, 0x00000000)  returns 0x00 (0000ms, 4578ms total)
T2970 1153:081 JLINK_WriteReg(R7, 0x00000000)  returns 0x00 (0000ms, 4578ms total)
T2970 1153:081 JLINK_WriteReg(R8, 0x00000000)  returns 0x00 (0000ms, 4578ms total)
T2970 1153:081 JLINK_WriteReg(R9, 0x200006F0)  returns 0x00 (0000ms, 4578ms total)
T2970 1153:081 JLINK_WriteReg(R10, 0x00000000)  returns 0x00 (0000ms, 4578ms total)
T2970 1153:081 JLINK_WriteReg(R11, 0x00000000)  returns 0x00 (0000ms, 4578ms total)
T2970 1153:081 JLINK_WriteReg(R12, 0x00000000)  returns 0x00 (0000ms, 4578ms total)
T2970 1153:081 JLINK_WriteReg(R13 (SP), 0x20002000)  returns 0x00 (0000ms, 4578ms total)
T2970 1153:081 JLINK_WriteReg(R14, 0x20000001)  returns 0x00 (0000ms, 4578ms total)
T2970 1153:081 JLINK_WriteReg(R15 (PC), 0x20000344)  returns 0x00 (0000ms, 4578ms total)
T2970 1153:081 JLINK_WriteReg(XPSR, 0x01000000)  returns 0x00 (0000ms, 4578ms total)
T2970 1153:081 JLINK_WriteReg(MSP, 0x20002000)  returns 0x00 (0000ms, 4578ms total)
T2970 1153:081 JLINK_WriteReg(PSP, 0x20002000)  returns 0x00 (0000ms, 4578ms total)
T2970 1153:081 JLINK_WriteReg(CFBP, 0x00000000)  returns 0x00 (0000ms, 4578ms total)
T2970 1153:081 JLINK_SetBPEx(Addr = 0x20000000, Type = 0xFFFFFFF2)  returns 0x0000000A (0000ms, 4578ms total)
T2970 1153:081 JLINK_Go() -- CPU_ReadMem(4 bytes @ 0xE0001000) (0002ms, 4580ms total)
T2970 1153:083 JLINK_IsHalted()  returns FALSE (0001ms, 4581ms total)
T2970 1153:086 JLINK_IsHalted() -- CPU_ReadMem(2 bytes @ 0x20000000)  returns TRUE (0003ms, 4583ms total)
T2970 1153:089 JLINK_ReadReg(R15 (PC))  returns 0x20000000 (0000ms, 4580ms total)
T2970 1153:089 JLINK_ClrBPEx(BPHandle = 0x0000000A)  returns 0x00 (0000ms, 4580ms total)
T2970 1153:089 JLINK_ReadReg(R0)  returns 0x00000000 (0000ms, 4580ms total)
T2970 1153:090 JLINK_WriteReg(R0, 0x00022000)  returns 0x00 (0000ms, 4580ms total)
T2970 1153:090 JLINK_WriteReg(R1, 0x00001000)  returns 0x00 (0000ms, 4580ms total)
T2970 1153:090 JLINK_WriteReg(R2, 0x000000FF)  returns 0x00 (0000ms, 4580ms total)
T2970 1153:090 JLINK_WriteReg(R3, 0x00000000)  returns 0x00 (0000ms, 4580ms total)
T2970 1153:090 JLINK_WriteReg(R4, 0x00000000)  returns 0x00 (0000ms, 4580ms total)
T2970 1153:090 JLINK_WriteReg(R5, 0x00000000)  returns 0x00 (0000ms, 4580ms total)
T2970 1153:090 JLINK_WriteReg(R6, 0x00000000)  returns 0x00 (0000ms, 4580ms total)
T2970 1153:090 JLINK_WriteReg(R7, 0x00000000)  returns 0x00 (0000ms, 4580ms total)
T2970 1153:090 JLINK_WriteReg(R8, 0x00000000)  returns 0x00 (0000ms, 4580ms total)
T2970 1153:090 JLINK_WriteReg(R9, 0x200006F0)  returns 0x00 (0000ms, 4580ms total)
T2970 1153:090 JLINK_WriteReg(R10, 0x00000000)  returns 0x00 (0000ms, 4580ms total)
T2970 1153:090 JLINK_WriteReg(R11, 0x00000000)  returns 0x00 (0000ms, 4580ms total)
T2970 1153:090 JLINK_WriteReg(R12, 0x00000000)  returns 0x00 (0000ms, 4580ms total)
T2970 1153:090 JLINK_WriteReg(R13 (SP), 0x20002000)  returns 0x00 (0000ms, 4580ms total)
T2970 1153:090 JLINK_WriteReg(R14, 0x20000001)  returns 0x00 (0000ms, 4580ms total)
T2970 1153:090 JLINK_WriteReg(R15 (PC), 0x20000344)  returns 0x00 (0000ms, 4580ms total)
T2970 1153:090 JLINK_WriteReg(XPSR, 0x01000000)  returns 0x00 (0000ms, 4580ms total)
T2970 1153:090 JLINK_WriteReg(MSP, 0x20002000)  returns 0x00 (0000ms, 4580ms total)
T2970 1153:090 JLINK_WriteReg(PSP, 0x20002000)  returns 0x00 (0000ms, 4580ms total)
T2970 1153:090 JLINK_WriteReg(CFBP, 0x00000000)  returns 0x00 (0000ms, 4580ms total)
T2970 1153:090 JLINK_SetBPEx(Addr = 0x20000000, Type = 0xFFFFFFF2)  returns 0x0000000B (0000ms, 4580ms total)
T2970 1153:090 JLINK_Go() -- CPU_ReadMem(4 bytes @ 0xE0001000) (0002ms, 4582ms total)
T2970 1153:092 JLINK_IsHalted()  returns FALSE (0000ms, 4582ms total)
T2970 1153:096 JLINK_IsHalted() -- CPU_ReadMem(2 bytes @ 0x20000000)  returns TRUE (0003ms, 4585ms total)
T2970 1153:099 JLINK_ReadReg(R15 (PC))  returns 0x20000000 (0000ms, 4582ms total)
T2970 1153:099 JLINK_ClrBPEx(BPHandle = 0x0000000B)  returns 0x00 (0000ms, 4582ms total)
T2970 1153:099 JLINK_ReadReg(R0)  returns 0x00000000 (0000ms, 4582ms total)
T2970 1153:100 JLINK_WriteReg(R0, 0x00023000)  returns 0x00 (0000ms, 4582ms total)
T2970 1153:100 JLINK_WriteReg(R1, 0x00001000)  returns 0x00 (0000ms, 4582ms total)
T2970 1153:100 JLINK_WriteReg(R2, 0x000000FF)  returns 0x00 (0000ms, 4582ms total)
T2970 1153:100 JLINK_WriteReg(R3, 0x00000000)  returns 0x00 (0000ms, 4582ms total)
T2970 1153:100 JLINK_WriteReg(R4, 0x00000000)  returns 0x00 (0000ms, 4582ms total)
T2970 1153:100 JLINK_WriteReg(R5, 0x00000000)  returns 0x00 (0000ms, 4582ms total)
T2970 1153:100 JLINK_WriteReg(R6, 0x00000000)  returns 0x00 (0000ms, 4582ms total)
T2970 1153:100 JLINK_WriteReg(R7, 0x00000000)  returns 0x00 (0000ms, 4582ms total)
T2970 1153:100 JLINK_WriteReg(R8, 0x00000000)  returns 0x00 (0000ms, 4582ms total)
T2970 1153:100 JLINK_WriteReg(R9, 0x200006F0)  returns 0x00 (0000ms, 4582ms total)
T2970 1153:100 JLINK_WriteReg(R10, 0x00000000)  returns 0x00 (0000ms, 4582ms total)
T2970 1153:100 JLINK_WriteReg(R11, 0x00000000)  returns 0x00 (0000ms, 4582ms total)
T2970 1153:100 JLINK_WriteReg(R12, 0x00000000)  returns 0x00 (0000ms, 4582ms total)
T2970 1153:100 JLINK_WriteReg(R13 (SP), 0x20002000)  returns 0x00 (0000ms, 4582ms total)
T2970 1153:100 JLINK_WriteReg(R14, 0x20000001)  returns 0x00 (0000ms, 4582ms total)
T2970 1153:100 JLINK_WriteReg(R15 (PC), 0x20000344)  returns 0x00 (0000ms, 4582ms total)
T2970 1153:100 JLINK_WriteReg(XPSR, 0x01000000)  returns 0x00 (0000ms, 4582ms total)
T2970 1153:100 JLINK_WriteReg(MSP, 0x20002000)  returns 0x00 (0000ms, 4582ms total)
T2970 1153:100 JLINK_WriteReg(PSP, 0x20002000)  returns 0x00 (0000ms, 4582ms total)
T2970 1153:100 JLINK_WriteReg(CFBP, 0x00000000)  returns 0x00 (0000ms, 4582ms total)
T2970 1153:100 JLINK_SetBPEx(Addr = 0x20000000, Type = 0xFFFFFFF2)  returns 0x0000000C (0000ms, 4582ms total)
T2970 1153:100 JLINK_Go() -- CPU_ReadMem(4 bytes @ 0xE0001000) (0029ms, 4611ms total)
T2970 1153:129 JLINK_IsHalted() -- CPU_ReadMem(2 bytes @ 0x20000000)  returns TRUE (0005ms, 4616ms total)
T2970 1153:134 JLINK_ReadReg(R15 (PC))  returns 0x20000000 (0000ms, 4611ms total)
T2970 1153:134 JLINK_ClrBPEx(BPHandle = 0x0000000C)  returns 0x00 (0000ms, 4611ms total)
T2970 1153:134 JLINK_ReadReg(R0)  returns 0x00000000 (0000ms, 4611ms total)
T2970 1153:134 JLINK_WriteReg(R0, 0x00024000)  returns 0x00 (0000ms, 4611ms total)
T2970 1153:134 JLINK_WriteReg(R1, 0x00001000)  returns 0x00 (0000ms, 4611ms total)
T2970 1153:134 JLINK_WriteReg(R2, 0x000000FF)  returns 0x00 (0000ms, 4611ms total)
T2970 1153:134 JLINK_WriteReg(R3, 0x00000000)  returns 0x00 (0000ms, 4611ms total)
T2970 1153:134 JLINK_WriteReg(R4, 0x00000000)  returns 0x00 (0000ms, 4611ms total)
T2970 1153:134 JLINK_WriteReg(R5, 0x00000000)  returns 0x00 (0000ms, 4611ms total)
T2970 1153:134 JLINK_WriteReg(R6, 0x00000000)  returns 0x00 (0000ms, 4611ms total)
T2970 1153:134 JLINK_WriteReg(R7, 0x00000000)  returns 0x00 (0000ms, 4611ms total)
T2970 1153:134 JLINK_WriteReg(R8, 0x00000000)  returns 0x00 (0000ms, 4611ms total)
T2970 1153:134 JLINK_WriteReg(R9, 0x200006F0)  returns 0x00 (0000ms, 4611ms total)
T2970 1153:134 JLINK_WriteReg(R10, 0x00000000)  returns 0x00 (0000ms, 4611ms total)
T2970 1153:134 JLINK_WriteReg(R11, 0x00000000)  returns 0x00 (0000ms, 4611ms total)
T2970 1153:134 JLINK_WriteReg(R12, 0x00000000)  returns 0x00 (0000ms, 4611ms total)
T2970 1153:134 JLINK_WriteReg(R13 (SP), 0x20002000)  returns 0x00 (0000ms, 4611ms total)
T2970 1153:134 JLINK_WriteReg(R14, 0x20000001)  returns 0x00 (0000ms, 4611ms total)
T2970 1153:134 JLINK_WriteReg(R15 (PC), 0x20000344)  returns 0x00 (0000ms, 4611ms total)
T2970 1153:134 JLINK_WriteReg(XPSR, 0x01000000)  returns 0x00 (0001ms, 4612ms total)
T2970 1153:135 JLINK_WriteReg(MSP, 0x20002000)  returns 0x00 (0000ms, 4612ms total)
T2970 1153:135 JLINK_WriteReg(PSP, 0x20002000)  returns 0x00 (0000ms, 4612ms total)
T2970 1153:135 JLINK_WriteReg(CFBP, 0x00000000)  returns 0x00 (0000ms, 4612ms total)
T2970 1153:135 JLINK_SetBPEx(Addr = 0x20000000, Type = 0xFFFFFFF2)  returns 0x0000000D (0000ms, 4612ms total)
T2970 1153:135 JLINK_Go() -- CPU_ReadMem(4 bytes @ 0xE0001000) (0002ms, 4614ms total)
T2970 1153:137 JLINK_IsHalted()  returns FALSE (0001ms, 4615ms total)
T2970 1153:142 JLINK_IsHalted() -- CPU_ReadMem(2 bytes @ 0x20000000)  returns TRUE (0003ms, 4617ms total)
T2970 1153:145 JLINK_ReadReg(R15 (PC))  returns 0x20000000 (0000ms, 4614ms total)
T2970 1153:145 JLINK_ClrBPEx(BPHandle = 0x0000000D)  returns 0x00 (0000ms, 4614ms total)
T2970 1153:145 JLINK_ReadReg(R0)  returns 0x00000000 (0000ms, 4614ms total)
T2970 1153:145 JLINK_WriteReg(R0, 0x00025000)  returns 0x00 (0000ms, 4614ms total)
T2970 1153:145 JLINK_WriteReg(R1, 0x00001000)  returns 0x00 (0000ms, 4614ms total)
T2970 1153:145 JLINK_WriteReg(R2, 0x000000FF)  returns 0x00 (0000ms, 4614ms total)
T2970 1153:145 JLINK_WriteReg(R3, 0x00000000)  returns 0x00 (0000ms, 4614ms total)
T2970 1153:145 JLINK_WriteReg(R4, 0x00000000)  returns 0x00 (0000ms, 4614ms total)
T2970 1153:145 JLINK_WriteReg(R5, 0x00000000)  returns 0x00 (0000ms, 4614ms total)
T2970 1153:145 JLINK_WriteReg(R6, 0x00000000)  returns 0x00 (0000ms, 4614ms total)
T2970 1153:145 JLINK_WriteReg(R7, 0x00000000)  returns 0x00 (0000ms, 4614ms total)
T2970 1153:145 JLINK_WriteReg(R8, 0x00000000)  returns 0x00 (0000ms, 4614ms total)
T2970 1153:145 JLINK_WriteReg(R9, 0x200006F0)  returns 0x00 (0000ms, 4614ms total)
T2970 1153:145 JLINK_WriteReg(R10, 0x00000000)  returns 0x00 (0000ms, 4614ms total)
T2970 1153:145 JLINK_WriteReg(R11, 0x00000000)  returns 0x00 (0000ms, 4614ms total)
T2970 1153:145 JLINK_WriteReg(R12, 0x00000000)  returns 0x00 (0000ms, 4614ms total)
T2970 1153:145 JLINK_WriteReg(R13 (SP), 0x20002000)  returns 0x00 (0000ms, 4614ms total)
T2970 1153:145 JLINK_WriteReg(R14, 0x20000001)  returns 0x00 (0000ms, 4614ms total)
T2970 1153:145 JLINK_WriteReg(R15 (PC), 0x20000344)  returns 0x00 (0000ms, 4614ms total)
T2970 1153:145 JLINK_WriteReg(XPSR, 0x01000000)  returns 0x00 (0000ms, 4614ms total)
T2970 1153:145 JLINK_WriteReg(MSP, 0x20002000)  returns 0x00 (0000ms, 4614ms total)
T2970 1153:145 JLINK_WriteReg(PSP, 0x20002000)  returns 0x00 (0000ms, 4614ms total)
T2970 1153:145 JLINK_WriteReg(CFBP, 0x00000000)  returns 0x00 (0000ms, 4614ms total)
T2970 1153:145 JLINK_SetBPEx(Addr = 0x20000000, Type = 0xFFFFFFF2)  returns 0x0000000E (0000ms, 4614ms total)
T2970 1153:145 JLINK_Go() -- CPU_ReadMem(4 bytes @ 0xE0001000) (0002ms, 4616ms total)
T2970 1153:147 JLINK_IsHalted()  returns FALSE (0000ms, 4616ms total)
T2970 1153:150 JLINK_IsHalted() -- CPU_ReadMem(2 bytes @ 0x20000000)  returns TRUE (0005ms, 4621ms total)
T2970 1153:155 JLINK_ReadReg(R15 (PC))  returns 0x20000000 (0000ms, 4616ms total)
T2970 1153:155 JLINK_ClrBPEx(BPHandle = 0x0000000E)  returns 0x00 (0000ms, 4616ms total)
T2970 1153:155 JLINK_ReadReg(R0)  returns 0x00000000 (0000ms, 4616ms total)
T2970 1153:155 JLINK_WriteReg(R0, 0x00000001)  returns 0x00 (0000ms, 4616ms total)
T2970 1153:155 JLINK_WriteReg(R1, 0x00001000)  returns 0x00 (0000ms, 4616ms total)
T2970 1153:155 JLINK_WriteReg(R2, 0x000000FF)  returns 0x00 (0000ms, 4616ms total)
T2970 1153:155 JLINK_WriteReg(R3, 0x00000000)  returns 0x00 (0000ms, 4616ms total)
T2970 1153:155 JLINK_WriteReg(R4, 0x00000000)  returns 0x00 (0000ms, 4616ms total)
T2970 1153:155 JLINK_WriteReg(R5, 0x00000000)  returns 0x00 (0000ms, 4616ms total)
T2970 1153:155 JLINK_WriteReg(R6, 0x00000000)  returns 0x00 (0000ms, 4616ms total)
T2970 1153:155 JLINK_WriteReg(R7, 0x00000000)  returns 0x00 (0000ms, 4616ms total)
T2970 1153:155 JLINK_WriteReg(R8, 0x00000000)  returns 0x00 (0000ms, 4616ms total)
T2970 1153:155 JLINK_WriteReg(R9, 0x200006F0)  returns 0x00 (0000ms, 4616ms total)
T2970 1153:155 JLINK_WriteReg(R10, 0x00000000)  returns 0x00 (0000ms, 4616ms total)
T2970 1153:155 JLINK_WriteReg(R11, 0x00000000)  returns 0x00 (0000ms, 4616ms total)
T2970 1153:155 JLINK_WriteReg(R12, 0x00000000)  returns 0x00 (0000ms, 4616ms total)
T2970 1153:155 JLINK_WriteReg(R13 (SP), 0x20002000)  returns 0x00 (0000ms, 4616ms total)
T2970 1153:155 JLINK_WriteReg(R14, 0x20000001)  returns 0x00 (0000ms, 4616ms total)
T2970 1153:155 JLINK_WriteReg(R15 (PC), 0x20000090)  returns 0x00 (0000ms, 4616ms total)
T2970 1153:155 JLINK_WriteReg(XPSR, 0x01000000)  returns 0x00 (0000ms, 4616ms total)
T2970 1153:155 JLINK_WriteReg(MSP, 0x20002000)  returns 0x00 (0000ms, 4616ms total)
T2970 1153:155 JLINK_WriteReg(PSP, 0x20002000)  returns 0x00 (0000ms, 4616ms total)
T2970 1153:155 JLINK_WriteReg(CFBP, 0x00000000)  returns 0x00 (0000ms, 4616ms total)
T2970 1153:155 JLINK_SetBPEx(Addr = 0x20000000, Type = 0xFFFFFFF2)  returns 0x0000000F (0000ms, 4616ms total)
T2970 1153:155 JLINK_Go() -- CPU_ReadMem(4 bytes @ 0xE0001000) (0002ms, 4618ms total)
T2970 1153:157 JLINK_IsHalted() -- CPU_ReadMem(2 bytes @ 0x20000000)  returns TRUE (0004ms, 4622ms total)
T2970 1153:161 JLINK_ReadReg(R15 (PC))  returns 0x20000000 (0000ms, 4618ms total)
T2970 1153:161 JLINK_ClrBPEx(BPHandle = 0x0000000F)  returns 0x00 (0000ms, 4618ms total)
T2970 1153:161 JLINK_ReadReg(R0)  returns 0x00000000 (0000ms, 4618ms total)
T2970 1153:221 JLINK_WriteMem(0x20000000, 0x06F4 Bytes, ...) - Data: 00 BE 0A E0 0D 78 2D 06 68 40 08 24 40 00 00 D3 ... -- CPU_WriteMem(1780 bytes @ 0x20000000)  returns 0x6F4 (0010ms, 4628ms total)
T2970 1153:231 JLINK_WriteReg(R0, 0x00000000)  returns 0x00 (0000ms, 4628ms total)
T2970 1153:231 JLINK_WriteReg(R1, 0x03D09000)  returns 0x00 (0000ms, 4628ms total)
T2970 1153:231 JLINK_WriteReg(R2, 0x00000002)  returns 0x00 (0000ms, 4628ms total)
T2970 1153:231 JLINK_WriteReg(R3, 0x00000000)  returns 0x00 (0000ms, 4628ms total)
T2970 1153:231 JLINK_WriteReg(R4, 0x00000000)  returns 0x00 (0000ms, 4628ms total)
T2970 1153:231 JLINK_WriteReg(R5, 0x00000000)  returns 0x00 (0000ms, 4628ms total)
T2970 1153:231 JLINK_WriteReg(R6, 0x00000000)  returns 0x00 (0000ms, 4628ms total)
T2970 1153:231 JLINK_WriteReg(R7, 0x00000000)  returns 0x00 (0000ms, 4628ms total)
T2970 1153:231 JLINK_WriteReg(R8, 0x00000000)  returns 0x00 (0000ms, 4628ms total)
T2970 1153:231 JLINK_WriteReg(R9, 0x200006F0)  returns 0x00 (0000ms, 4628ms total)
T2970 1153:231 JLINK_WriteReg(R10, 0x00000000)  returns 0x00 (0000ms, 4628ms total)
T2970 1153:231 JLINK_WriteReg(R11, 0x00000000)  returns 0x00 (0000ms, 4628ms total)
T2970 1153:231 JLINK_WriteReg(R12, 0x00000000)  returns 0x00 (0000ms, 4628ms total)
T2970 1153:231 JLINK_WriteReg(R13 (SP), 0x20002000)  returns 0x00 (0000ms, 4628ms total)
T2970 1153:231 JLINK_WriteReg(R14, 0x20000001)  returns 0x00 (0000ms, 4628ms total)
T2970 1153:231 JLINK_WriteReg(R15 (PC), 0x20000020)  returns 0x00 (0000ms, 4628ms total)
T2970 1153:231 JLINK_WriteReg(XPSR, 0x01000000)  returns 0x00 (0000ms, 4628ms total)
T2970 1153:231 JLINK_WriteReg(MSP, 0x20002000)  returns 0x00 (0000ms, 4628ms total)
T2970 1153:231 JLINK_WriteReg(PSP, 0x20002000)  returns 0x00 (0000ms, 4628ms total)
T2970 1153:231 JLINK_WriteReg(CFBP, 0x00000000)  returns 0x00 (0000ms, 4628ms total)
T2970 1153:231 JLINK_SetBPEx(Addr = 0x20000000, Type = 0xFFFFFFF2) -- CPU_ReadMem(2 bytes @ 0x20000000)  returns 0x00000010 (0000ms, 4628ms total)
T2970 1153:231 JLINK_Go() -- CPU_WriteMem(2 bytes @ 0x20000000) -- CPU_ReadMem(4 bytes @ 0xE0001000) (0003ms, 4631ms total)
T2970 1153:234 JLINK_IsHalted() -- CPU_ReadMem(2 bytes @ 0x20000000)  returns TRUE (0004ms, 4635ms total)
T2970 1153:238 JLINK_ReadReg(R15 (PC))  returns 0x20000000 (0000ms, 4631ms total)
T2970 1153:238 JLINK_ClrBPEx(BPHandle = 0x00000010)  returns 0x00 (0000ms, 4631ms total)
T2970 1153:238 JLINK_ReadReg(R0)  returns 0x00000000 (0000ms, 4631ms total)
T2970 1153:238 JLINK_WriteMem(0x20000704, 0x00FC Bytes, ...) - Data: 20 4E 00 20 C1 93 01 00 EB 93 01 00 ED 93 01 00 ... -- CPU_WriteMem(252 bytes @ 0x20000704)  returns 0xFC (0003ms, 4634ms total)
T2970 1153:241 JLINK_WriteMem(0x20000800, 0x0400 Bytes, ...) - Data: 00 00 00 00 00 00 00 00 00 00 00 00 00 00 00 00 ... -- CPU_WriteMem(1024 bytes @ 0x20000800)  returns 0x400 (0006ms, 4640ms total)
T2970 1153:247 JLINK_WriteMem(0x20000C00, 0x0400 Bytes, ...) - Data: 5B 1C 93 42 03 D2 E0 5C CD 5C 40 1B F8 D0 30 BD ... -- CPU_WriteMem(1024 bytes @ 0x20000C00)  returns 0x400 (0034ms, 4674ms total)
T2970 1153:281 JLINK_WriteMem(0x20001000, 0x0400 Bytes, ...) - Data: D0 F8 00 C0 0C EB 84 07 1C F8 24 10 7E 78 BB 78 ... -- CPU_WriteMem(1024 bytes @ 0x20001000)  returns 0x400 (0006ms, 4680ms total)
T2970 1153:287 JLINK_WriteMem(0x20001400, 0x0304 Bytes, ...) - Data: 01 68 C9 07 02 D0 6F F0 01 01 01 60 D4 F8 30 01 ... -- CPU_WriteMem(772 bytes @ 0x20001400)  returns 0x304 (0005ms, 4685ms total)
T2970 1153:292 JLINK_WriteReg(R0, 0x00019000)  returns 0x00 (0000ms, 4685ms total)
T2970 1153:292 JLINK_WriteReg(R1, 0x00001000)  returns 0x00 (0000ms, 4685ms total)
T2970 1153:292 JLINK_WriteReg(R2, 0x20000704)  returns 0x00 (0000ms, 4685ms total)
T2970 1153:292 JLINK_WriteReg(R3, 0x00000000)  returns 0x00 (0000ms, 4685ms total)
T2970 1153:292 JLINK_WriteReg(R4, 0x00000000)  returns 0x00 (0000ms, 4685ms total)
T2970 1153:292 JLINK_WriteReg(R5, 0x00000000)  returns 0x00 (0000ms, 4685ms total)
T2970 1153:292 JLINK_WriteReg(R6, 0x00000000)  returns 0x00 (0000ms, 4685ms total)
T2970 1153:292 JLINK_WriteReg(R7, 0x00000000)  returns 0x00 (0000ms, 4685ms total)
T2970 1153:292 JLINK_WriteReg(R8, 0x00000000)  returns 0x00 (0000ms, 4685ms total)
T2970 1153:292 JLINK_WriteReg(R9, 0x200006F0)  returns 0x00 (0000ms, 4685ms total)
T2970 1153:292 JLINK_WriteReg(R10, 0x00000000)  returns 0x00 (0000ms, 4685ms total)
T2970 1153:292 JLINK_WriteReg(R11, 0x00000000)  returns 0x00 (0000ms, 4685ms total)
T2970 1153:292 JLINK_WriteReg(R12, 0x00000000)  returns 0x00 (0000ms, 4685ms total)
T2970 1153:292 JLINK_WriteReg(R13 (SP), 0x20002000)  returns 0x00 (0000ms, 4685ms total)
T2970 1153:292 JLINK_WriteReg(R14, 0x20000001)  returns 0x00 (0000ms, 4685ms total)
T2970 1153:292 JLINK_WriteReg(R15 (PC), 0x2000020C)  returns 0x00 (0000ms, 4685ms total)
T2970 1153:292 JLINK_WriteReg(XPSR, 0x01000000)  returns 0x00 (0000ms, 4685ms total)
T2970 1153:292 JLINK_WriteReg(MSP, 0x20002000)  returns 0x00 (0000ms, 4685ms total)
T2970 1153:292 JLINK_WriteReg(PSP, 0x20002000)  returns 0x00 (0000ms, 4685ms total)
T2970 1153:292 JLINK_WriteReg(CFBP, 0x00000000)  returns 0x00 (0000ms, 4685ms total)
T2970 1153:293 JLINK_SetBPEx(Addr = 0x20000000, Type = 0xFFFFFFF2)  returns 0x00000011 (0000ms, 4685ms total)
T2970 1153:293 JLINK_Go() -- CPU_ReadMem(4 bytes @ 0xE0001000) (0001ms, 4686ms total)
T2970 1153:294 JLINK_IsHalted()  returns FALSE (0001ms, 4687ms total)
T2970 1153:299 JLINK_IsHalted()  returns FALSE (0000ms, 4686ms total)
T2970 1153:301 JLINK_IsHalted()  returns FALSE (0000ms, 4686ms total)
T2970 1153:303 JLINK_IsHalted()  returns FALSE (0001ms, 4687ms total)
T2970 1153:306 JLINK_IsHalted()  returns FALSE (0000ms, 4686ms total)
T2970 1153:308 JLINK_IsHalted()  returns FALSE (0000ms, 4686ms total)
T2970 1153:310 JLINK_IsHalted()  returns FALSE (0000ms, 4686ms total)
T2970 1153:312 JLINK_IsHalted()  returns FALSE (0000ms, 4686ms total)
T2970 1153:315 JLINK_IsHalted()  returns FALSE (0000ms, 4686ms total)
T2970 1153:316 JLINK_IsHalted()  returns FALSE (0000ms, 4686ms total)
T2970 1153:318 JLINK_IsHalted() -- CPU_ReadMem(2 bytes @ 0x20000000)  returns TRUE (0031ms, 4717ms total)
T2970 1153:349 JLINK_ReadReg(R15 (PC))  returns 0x20000000 (0000ms, 4686ms total)
